T360C 34961:247 SEGGER J-Link V4.90 Log File (0000ms, 100595ms total)
T360C 34961:247 DLL Compiled: Jul 28 2014 10:35:20 (0000ms, 100595ms total)
T360C 34961:247 Logging started @ 2021-03-23 20:32 (0000ms, 100595ms total)
T360C 34961:247 JLINK_SetWarnOutHandler(...) (0000ms, 100595ms total)
T360C 34961:247 JLINK_OpenEx(...)
Firmware: J-Link ARM-OB STM32 compiled Aug 22 2012 19:52:04
Hardware: V7.00
S/N: 20090928
Feature(s): RDI,FlashDL,FlashBP,JFlash,GDBDevice "UNSPECIFIED" selected (0 KB flash, 0 KB RAM).  returns O.K. (0295ms, 100890ms total)
T360C 34961:542 JLINK_GetEmuCaps()  returns 0x88EA5833 (0000ms, 100890ms total)
T360C 34961:542 JLINK_TIF_GetAvailable(...) (0001ms, 100891ms total)
T360C 34961:543 JLINK_SetErrorOutHandler(...) (0000ms, 100891ms total)
T360C 34961:543 JLINK_ExecCommand("ProjectFile = "D:\Desktop\GraduationPro\MDK-ARM\JLinkSettings.ini"", ...)Device "UNSPECIFIED" selected (0 KB flash, 0 KB RAM).  returns 0x00 (0041ms, 100932ms total)
T360C 34961:597 JLINK_ExecCommand("Device = STM32F427VITx", ...)Device "UNSPECIFIED" selected (0 KB flash, 0 KB RAM).  returns 0x00 (0014ms, 100946ms total)
T360C 34961:611 JLINK_ExecCommand("DisableConnectionTimeout", ...)  returns 0x01 (0000ms, 100946ms total)
T360C 34961:611 JLINK_GetHardwareVersion()  returns 0x11170 (0000ms, 100946ms total)
T360C 34961:611 JLINK_GetDLLVersion()  returns 49000 (0000ms, 100946ms total)
T360C 34961:611 JLINK_GetFirmwareString(...) (0000ms, 100946ms total)
T360C 34961:647 JLINK_GetDLLVersion()  returns 49000 (0000ms, 100946ms total)
T360C 34961:647 JLINK_GetCompileDateTime() (0000ms, 100946ms total)
T360C 34961:658 JLINK_GetFirmwareString(...) (0000ms, 100946ms total)
T360C 34961:675 JLINK_GetHardwareVersion()  returns 0x11170 (0000ms, 100946ms total)
T360C 34961:726 JLINK_TIF_Select(JLINKARM_TIF_SWD)  returns 0x00 (0000ms, 100946ms total)
T360C 34961:726 JLINK_SetSpeed(1000) (0001ms, 100947ms total)
T360C 34961:727 JLINK_GetId() >0x108 TIF>Found SWD-DP with ID 0x2BA01477 >0x0D TIF> >0x21 TIF> >0x0D TIF> >0x28 TIF> >0x0D TIF> >0x28 TIF> >0x0D TIF> >0x21 TIF> >0x0D TIF> >0x28 TIF> >0x0D TIF> >0x21 TIF> >0x0D TIF> >0x21 TIF> >0x0D TIF> >0x21 TIF> >0x0D TIF> >0x21 TIF> >0x0D TIF> >0x28 TIF> >0x0D TIF> >0x28 TIF> >0x0D TIF> >0x21 TIF> >0x0D TIF> >0x28 TIF> >0x0D TIF> >0x28 TIF> >0x0D TIF> >0x28 TIF> >0x0D TIF> >0x21 TIF> >0x0D TIF> >0x21 TIF> >0x0D TIF> >0x28 TIF> >0x0D TIF> >0x21 TIF> >0x0D TIF>
 >0x21 TIF>Found Cortex-M4 r0p1, Little endian. -- CPU_WriteMem(4 bytes @ 0xE0002000) -- CPU_ReadMem(4 bytes @ 0xE000EDF0) -- CPU_ReadMem(4 bytes @ 0xE0002000)FPUnit: 6 code (BP) slots and 2 literal slots -- CPU_ReadMem(4 bytes @ 0xE000EDFC) -- CPU_ReadMem(4 bytes @ 0xE0001000) -- CPU_WriteMem(4 bytes @ 0xE0001000) -- CPU_ReadMem(4 bytes @ 0xE00FF010)TPIU fitted. -- CPU_ReadMem(4 bytes @ 0xE00FF014)ETM fitted. -- CPU_ReadMem(4 bytes @ 0xE00FF018) >0x0D TIF> >0x21 TIF>  returns 0x2BA01477
 (0076ms, 101023ms total)
T360C 34961:803 JLINK_GetDLLVersion()  returns 49000 (0000ms, 101023ms total)
T360C 34961:803 JLINK_CORE_GetFound()  returns 0xE0000FF (0000ms, 101023ms total)
T360C 34961:827 JLINK_GetDebugInfo(0x100) -- Value=0xE00FF003  returns 0x00 (0001ms, 101024ms total)
T360C 34961:828 JLINK_GetDebugInfo(0x101)  returns 0xFFFFFFFF (0000ms, 101024ms total)
T360C 34961:828 JLINK_ReadMemEx(0xE0041FF0, 0x0010 Bytes, ..., AccessWidth = 33554436) -- CPU is running -- CPU_ReadMem(16 bytes @ 0xE0041FF0) - Data: 0D 00 00 00 90 00 00 00 05 00 00 00 B1 00 00 00  returns 0x10 (0001ms, 101025ms total)
T360C 34961:829 JLINK_ReadMemEx(0xE0041FD0, 0x0020 Bytes, ..., AccessWidth = 33554436) -- CPU is running -- CPU_ReadMem(32 bytes @ 0xE0041FD0) - Data: 04 00 00 00 00 00 00 00 00 00 00 00 00 00 00 00 ...  returns 0x20 (0002ms, 101027ms total)
T360C 34961:831 JLINK_GetDebugInfo(0x102)  returns 0xFFFFFFFF (0000ms, 101027ms total)
T360C 34961:831 JLINK_GetDebugInfo(0x103)  returns 0xFFFFFFFF (0000ms, 101027ms total)
T360C 34961:831 JLINK_ReadMemEx(0xE0040FF0, 0x0010 Bytes, ..., AccessWidth = 33554436) -- CPU is running -- CPU_ReadMem(16 bytes @ 0xE0040FF0) - Data: 0D 00 00 00 90 00 00 00 05 00 00 00 B1 00 00 00  returns 0x10 (0001ms, 101028ms total)
T360C 34961:832 JLINK_GetDebugInfo(0x104)  returns 0xFFFFFFFF (0000ms, 101028ms total)
T360C 34961:832 JLINK_GetDebugInfo(0x105)  returns 0xFFFFFFFF (0000ms, 101028ms total)
T360C 34961:832 JLINK_GetDebugInfo(0x106)  returns 0xFFFFFFFF (0000ms, 101028ms total)
T360C 34961:832 JLINK_GetDebugInfo(0x107)  returns 0xFFFFFFFF (0000ms, 101028ms total)
T360C 34961:832 JLINK_GetDebugInfo(0x10C)  returns 0xFFFFFFFF (0000ms, 101028ms total)
T360C 34961:832 JLINK_GetDebugInfo(0x01)  returns 0xFFFFFFFF (0000ms, 101028ms total)
T360C 34961:832 JLINK_GetDeviceFamily()  returns 14 (0000ms, 101028ms total)
T360C 34961:832 JLINK_ReadMemU32(0xE000ED00, 0x0001 Items, ...) -- CPU is running -- CPU_ReadMem(4 bytes @ 0xE000ED00) - Data: 41 C2 0F 41  returns 0x01 (0001ms, 101029ms total)
T360C 34961:833 JLINK_GetDebugInfo(0x10F)  returns 0xFFFFFFFF (0000ms, 101029ms total)
T360C 34961:833 JLINK_SetResetType(JLINKARM_RESET_TYPE_NORMAL)  returns JLINKARM_RESET_TYPE_NORMAL (0000ms, 101029ms total)
T360C 34961:833 JLINK_Reset() -- CPU is running -- CPU_WriteMem(4 bytes @ 0xE000EDF0) -- CPU is running -- CPU_WriteMem(4 bytes @ 0xE000EDFC) >0x35 TIF> -- CPU is running -- CPU_WriteMem(4 bytes @ 0xE000ED0C) -- CPU is running -- CPU_ReadMem(4 bytes @ 0xE000EDF0) -- CPU is running -- CPU_ReadMem(4 bytes @ 0xE000EDF0) -- CPU is running -- CPU_WriteMem(4 bytes @ 0xE000EDF0) -- CPU is running -- CPU_WriteMem(4 bytes @ 0xE000EDFC) -- CPU is running -- CPU_ReadMem(4 bytes @ 0xE000EDF0)
 -- CPU_WriteMem(4 bytes @ 0xE0002000) -- CPU_ReadMem(4 bytes @ 0xE000EDFC) -- CPU_ReadMem(4 bytes @ 0xE0001000) (0028ms, 101057ms total)
T360C 34961:862 JLINK_Halt()  returns 0x00 (0000ms, 101057ms total)
T360C 34961:862 JLINK_ReadMemU32(0xE000EDF0, 0x0001 Items, ...) -- CPU_ReadMem(4 bytes @ 0xE000EDF0) - Data: 03 00 03 00  returns 0x01 (0001ms, 101058ms total)
T360C 34961:863 JLINK_WriteU32(0xE000EDF0, 0xA05F0003) -- CPU_WriteMem(4 bytes @ 0xE000EDF0)  returns 0x00 (0001ms, 101059ms total)
T360C 34961:864 JLINK_WriteU32(0xE000EDFC, 0x01000000) -- CPU_WriteMem(4 bytes @ 0xE000EDFC)  returns 0x00 (0001ms, 101060ms total)
T360C 34961:919 JLINK_GetHWStatus(...)  returns 0x00 (0000ms, 101060ms total)
T360C 34961:960 JLINK_GetNumBPUnits(Type = 0xFFFFFF00)  returns 0x06 (0000ms, 101060ms total)
T360C 34961:960 JLINK_GetNumBPUnits(Type = 0xF0)  returns 0x2000 (0000ms, 101060ms total)
T360C 34961:960 JLINK_GetNumWPUnits()  returns 0x04 (0000ms, 101060ms total)
T360C 34961:994 JLINK_GetSpeed()  returns 0x3E8 (0000ms, 101060ms total)
T360C 34962:020 JLINK_ReadMemU32(0xE000E004, 0x0001 Items, ...) -- CPU_ReadMem(4 bytes @ 0xE000E004) - Data: 02 00 00 00  returns 0x01 (0002ms, 101062ms total)
T360C 34962:022 JLINK_ReadMemU32(0xE000E004, 0x0001 Items, ...) -- CPU_ReadMem(4 bytes @ 0xE000E004) - Data: 02 00 00 00  returns 0x01 (0000ms, 101062ms total)
T360C 34962:022 JLINK_WriteMemEx(0xE0001000, 0x001C Bytes, ..., AccessWidth = 33554436) - Data: 01 00 00 00 00 00 00 00 00 00 00 00 00 00 00 00 ... -- CPU_WriteMem(28 bytes @ 0xE0001000)  returns 0x1C (0003ms, 101065ms total)
T360C 34962:025 JLINK_Halt()  returns 0x00 (0000ms, 101065ms total)
T360C 34962:025 JLINK_IsHalted()  returns TRUE (0000ms, 101065ms total)
T360C 34962:030 JLINK_WriteMem(0x20000000, 0x0198 Bytes, ...) - Data: 00 BE 0A E0 0D 78 2D 06 68 40 08 24 40 00 00 D3 ... -- CPU_WriteMem(408 bytes @ 0x20000000)  returns 0x198 (0014ms, 101079ms total)
T360C 34962:044 JLINK_WriteReg(R0, 0x08000000)  returns 0x00 (0000ms, 101079ms total)
T360C 34962:044 JLINK_WriteReg(R1, 0x0ABA9500)  returns 0x00 (0000ms, 101079ms total)
T360C 34962:044 JLINK_WriteReg(R2, 0x00000001)  returns 0x00 (0000ms, 101079ms total)
T360C 34962:044 JLINK_WriteReg(R3, 0x00000000)  returns 0x00 (0000ms, 101079ms total)
T360C 34962:044 JLINK_WriteReg(R4, 0x00000000)  returns 0x00 (0000ms, 101079ms total)
T360C 34962:044 JLINK_WriteReg(R5, 0x00000000)  returns 0x00 (0000ms, 101079ms total)
T360C 34962:044 JLINK_WriteReg(R6, 0x00000000)  returns 0x00 (0000ms, 101079ms total)
T360C 34962:044 JLINK_WriteReg(R7, 0x00000000)  returns 0x00 (0000ms, 101079ms total)
T360C 34962:044 JLINK_WriteReg(R8, 0x00000000)  returns 0x00 (0000ms, 101079ms total)
T360C 34962:044 JLINK_WriteReg(R9, 0x20000194)  returns 0x00 (0000ms, 101079ms total)
T360C 34962:044 JLINK_WriteReg(R10, 0x00000000)  returns 0x00 (0000ms, 101079ms total)
T360C 34962:044 JLINK_WriteReg(R11, 0x00000000)  returns 0x00 (0000ms, 101079ms total)
T360C 34962:044 JLINK_WriteReg(R12, 0x00000000)  returns 0x00 (0000ms, 101079ms total)
T360C 34962:044 JLINK_WriteReg(R13 (SP), 0x20001000)  returns 0x00 (0000ms, 101079ms total)
T360C 34962:044 JLINK_WriteReg(R14, 0x20000001)  returns 0x00 (0000ms, 101079ms total)
T360C 34962:044 JLINK_WriteReg(R15 (PC), 0x2000005E)  returns 0x00 (0000ms, 101079ms total)
T360C 34962:044 JLINK_WriteReg(XPSR, 0x01000000)  returns 0x00 (0000ms, 101079ms total)
T360C 34962:044 JLINK_WriteReg(MSP, 0x20001000)  returns 0x00 (0000ms, 101079ms total)
T360C 34962:044 JLINK_WriteReg(PSP, 0x20001000)  returns 0x00 (0000ms, 101079ms total)
T360C 34962:044 JLINK_WriteReg(CFBP, 0x00000000)  returns 0x00 (0001ms, 101080ms total)
T360C 34962:045 JLINK_SetBPEx(Addr = 0x20000000, Type = 0xFFFFFFF2) -- CPU_ReadMem(4 bytes @ 0x20000000) -- CPU_WriteMem(4 bytes @ 0x20000000) -- CPU_ReadMem(4 bytes @ 0x20000000) -- CPU_WriteMem(4 bytes @ 0x20000000) -- CPU_ReadMem(2 bytes @ 0x20000000)  returns 0x00000001 (0004ms, 101084ms total)
T360C 34962:049 JLINK_Go() -- CPU_WriteMem(2 bytes @ 0x20000000) -- CPU_WriteMem(4 bytes @ 0xE0002008) -- CPU_WriteMem(4 bytes @ 0xE000200C) -- CPU_WriteMem(4 bytes @ 0xE0002010) -- CPU_WriteMem(4 bytes @ 0xE0002014) -- CPU_WriteMem(4 bytes @ 0xE0002018) -- CPU_WriteMem(4 bytes @ 0xE000201C) -- CPU_WriteMem(4 bytes @ 0xE0001004) (0013ms, 101097ms total)
T360C 34962:062 JLINK_IsHalted() -- CPU_ReadMem(2 bytes @ 0x20000000)  returns TRUE (0010ms, 101107ms total)
T360C 34962:072 JLINK_ReadReg(R15 (PC))  returns 0x20000000 (0000ms, 101097ms total)
T360C 34962:072 JLINK_ClrBPEx(BPHandle = 0x00000001)  returns 0x00 (0000ms, 101097ms total)
T360C 34962:072 JLINK_ReadReg(R0)  returns 0x00000000 (0000ms, 101097ms total)
T360C 34962:072 JLINK_WriteReg(R0, 0x08000000)  returns 0x00 (0000ms, 101097ms total)
T360C 34962:072 JLINK_WriteReg(R1, 0x00004000)  returns 0x00 (0000ms, 101097ms total)
T360C 34962:072 JLINK_WriteReg(R2, 0x000000FF)  returns 0x00 (0000ms, 101097ms total)
T360C 34962:072 JLINK_WriteReg(R3, 0x00000000)  returns 0x00 (0000ms, 101097ms total)
T360C 34962:072 JLINK_WriteReg(R4, 0x00000000)  returns 0x00 (0000ms, 101097ms total)
T360C 34962:072 JLINK_WriteReg(R5, 0x00000000)  returns 0x00 (0000ms, 101097ms total)
T360C 34962:072 JLINK_WriteReg(R6, 0x00000000)  returns 0x00 (0000ms, 101097ms total)
T360C 34962:072 JLINK_WriteReg(R7, 0x00000000)  returns 0x00 (0000ms, 101097ms total)
T360C 34962:073 JLINK_WriteReg(R8, 0x00000000)  returns 0x00 (0000ms, 101097ms total)
T360C 34962:073 JLINK_WriteReg(R9, 0x20000194)  returns 0x00 (0000ms, 101097ms total)
T360C 34962:073 JLINK_WriteReg(R10, 0x00000000)  returns 0x00 (0000ms, 101097ms total)
T360C 34962:073 JLINK_WriteReg(R11, 0x00000000)  returns 0x00 (0000ms, 101097ms total)
T360C 34962:073 JLINK_WriteReg(R12, 0x00000000)  returns 0x00 (0000ms, 101097ms total)
T360C 34962:073 JLINK_WriteReg(R13 (SP), 0x20001000)  returns 0x00 (0000ms, 101097ms total)
T360C 34962:073 JLINK_WriteReg(R14, 0x20000001)  returns 0x00 (0000ms, 101097ms total)
T360C 34962:073 JLINK_WriteReg(R15 (PC), 0x20000020)  returns 0x00 (0000ms, 101097ms total)
T360C 34962:073 JLINK_WriteReg(XPSR, 0x01000000)  returns 0x00 (0000ms, 101097ms total)
T360C 34962:073 JLINK_WriteReg(MSP, 0x20001000)  returns 0x00 (0000ms, 101097ms total)
T360C 34962:073 JLINK_WriteReg(PSP, 0x20001000)  returns 0x00 (0000ms, 101097ms total)
T360C 34962:073 JLINK_WriteReg(CFBP, 0x00000000)  returns 0x00 (0000ms, 101097ms total)
T360C 34962:073 JLINK_SetBPEx(Addr = 0x20000000, Type = 0xFFFFFFF2)  returns 0x00000002 (0000ms, 101097ms total)
T360C 34962:073 JLINK_Go() (0004ms, 101101ms total)
T360C 34962:077 JLINK_IsHalted() -- CPU_ReadMem(2 bytes @ 0x20000000)  returns TRUE (0009ms, 101110ms total)
T360C 34962:086 JLINK_ReadReg(R15 (PC))  returns 0x20000000 (0000ms, 101101ms total)
T360C 34962:086 JLINK_ClrBPEx(BPHandle = 0x00000002)  returns 0x00 (0000ms, 101101ms total)
T360C 34962:086 JLINK_ReadReg(R0)  returns 0x00000001 (0000ms, 101101ms total)
T360C 34962:086 JLINK_WriteReg(R0, 0x08000000)  returns 0x00 (0000ms, 101101ms total)
T360C 34962:086 JLINK_WriteReg(R1, 0x00004000)  returns 0x00 (0000ms, 101101ms total)
T360C 34962:086 JLINK_WriteReg(R2, 0x000000FF)  returns 0x00 (0000ms, 101101ms total)
T360C 34962:086 JLINK_WriteReg(R3, 0x00000000)  returns 0x00 (0000ms, 101101ms total)
T360C 34962:086 JLINK_WriteReg(R4, 0x00000000)  returns 0x00 (0000ms, 101101ms total)
T360C 34962:086 JLINK_WriteReg(R5, 0x00000000)  returns 0x00 (0000ms, 101101ms total)
T360C 34962:086 JLINK_WriteReg(R6, 0x00000000)  returns 0x00 (0000ms, 101101ms total)
T360C 34962:086 JLINK_WriteReg(R7, 0x00000000)  returns 0x00 (0000ms, 101101ms total)
T360C 34962:086 JLINK_WriteReg(R8, 0x00000000)  returns 0x00 (0000ms, 101101ms total)
T360C 34962:086 JLINK_WriteReg(R9, 0x20000194)  returns 0x00 (0000ms, 101101ms total)
T360C 34962:086 JLINK_WriteReg(R10, 0x00000000)  returns 0x00 (0000ms, 101101ms total)
T360C 34962:086 JLINK_WriteReg(R11, 0x00000000)  returns 0x00 (0000ms, 101101ms total)
T360C 34962:086 JLINK_WriteReg(R12, 0x00000000)  returns 0x00 (0000ms, 101101ms total)
T360C 34962:086 JLINK_WriteReg(R13 (SP), 0x20001000)  returns 0x00 (0000ms, 101101ms total)
T360C 34962:086 JLINK_WriteReg(R14, 0x20000001)  returns 0x00 (0000ms, 101101ms total)
T360C 34962:086 JLINK_WriteReg(R15 (PC), 0x200000D4)  returns 0x00 (0000ms, 101101ms total)
T360C 34962:086 JLINK_WriteReg(XPSR, 0x01000000)  returns 0x00 (0000ms, 101101ms total)
T360C 34962:087 JLINK_WriteReg(MSP, 0x20001000)  returns 0x00 (0000ms, 101102ms total)
T360C 34962:087 JLINK_WriteReg(PSP, 0x20001000)  returns 0x00 (0000ms, 101102ms total)
T360C 34962:087 JLINK_WriteReg(CFBP, 0x00000000)  returns 0x00 (0000ms, 101102ms total)
T360C 34962:087 JLINK_SetBPEx(Addr = 0x20000000, Type = 0xFFFFFFF2)  returns 0x00000003 (0000ms, 101102ms total)
T360C 34962:087 JLINK_Go() (0004ms, 101106ms total)
T360C 34962:091 JLINK_IsHalted()  returns FALSE (0001ms, 101107ms total)
T360C 34962:228 JLINK_IsHalted()  returns FALSE (0001ms, 101107ms total)
T360C 34962:231 JLINK_IsHalted()  returns FALSE (0001ms, 101107ms total)
T360C 34962:235 JLINK_IsHalted()  returns FALSE (0000ms, 101106ms total)
T360C 34962:238 JLINK_IsHalted()  returns FALSE (0002ms, 101108ms total)
T360C 34962:242 JLINK_IsHalted()  returns FALSE (0001ms, 101107ms total)
T360C 34962:245 JLINK_IsHalted()  returns FALSE (0001ms, 101107ms total)
T360C 34962:248 JLINK_IsHalted()  returns FALSE (0001ms, 101107ms total)
T360C 34962:254 JLINK_IsHalted()  returns FALSE (0001ms, 101107ms total)
T360C 34962:257 JLINK_IsHalted()  returns FALSE (0000ms, 101106ms total)
T360C 34962:260 JLINK_IsHalted()  returns FALSE (0000ms, 101106ms total)
T360C 34962:262 JLINK_IsHalted()  returns FALSE (0000ms, 101106ms total)
T360C 34962:265 JLINK_IsHalted()  returns FALSE (0000ms, 101106ms total)
T360C 34962:282 JLINK_IsHalted()  returns FALSE (0000ms, 101106ms total)
T360C 34962:285 JLINK_IsHalted()  returns FALSE (0001ms, 101107ms total)
T360C 34962:288 JLINK_IsHalted()  returns FALSE (0001ms, 101107ms total)
T360C 34962:291 JLINK_IsHalted()  returns FALSE (0001ms, 101107ms total)
T360C 34962:294 JLINK_IsHalted()  returns FALSE (0001ms, 101107ms total)
T360C 34962:297 JLINK_IsHalted()  returns FALSE (0001ms, 101107ms total)
T360C 34962:300 JLINK_IsHalted()  returns FALSE (0001ms, 101107ms total)
T360C 34962:303 JLINK_IsHalted()  returns FALSE (0001ms, 101107ms total)
T360C 34962:306 JLINK_IsHalted()  returns FALSE (0001ms, 101107ms total)
T360C 34962:309 JLINK_IsHalted()  returns FALSE (0001ms, 101107ms total)
T360C 34962:312 JLINK_IsHalted()  returns FALSE (0001ms, 101107ms total)
T360C 34962:315 JLINK_IsHalted()  returns FALSE (0001ms, 101107ms total)
T360C 34962:318 JLINK_IsHalted()  returns FALSE (0001ms, 101107ms total)
T360C 34962:321 JLINK_IsHalted()  returns FALSE (0001ms, 101107ms total)
T360C 34962:324 JLINK_IsHalted()  returns FALSE (0001ms, 101107ms total)
T360C 34962:327 JLINK_IsHalted()  returns FALSE (0001ms, 101107ms total)
T360C 34962:330 JLINK_IsHalted()  returns FALSE (0001ms, 101107ms total)
T360C 34962:333 JLINK_IsHalted()  returns FALSE (0001ms, 101107ms total)
T360C 34962:336 JLINK_IsHalted()  returns FALSE (0001ms, 101107ms total)
T360C 34962:339 JLINK_IsHalted()  returns FALSE (0001ms, 101107ms total)
T360C 34962:342 JLINK_IsHalted()  returns FALSE (0001ms, 101107ms total)
T360C 34962:354 JLINK_IsHalted()  returns FALSE (0001ms, 101107ms total)
T360C 34962:357 JLINK_IsHalted()  returns FALSE (0001ms, 101107ms total)
T360C 34962:360 JLINK_IsHalted()  returns FALSE (0001ms, 101107ms total)
T360C 34962:363 JLINK_IsHalted()  returns FALSE (0001ms, 101107ms total)
T360C 34962:366 JLINK_IsHalted()  returns FALSE (0001ms, 101107ms total)
T360C 34962:369 JLINK_IsHalted()  returns FALSE (0001ms, 101107ms total)
T360C 34962:371 JLINK_IsHalted()  returns FALSE (0001ms, 101107ms total)
T360C 34962:374 JLINK_IsHalted()  returns FALSE (0001ms, 101107ms total)
T360C 34962:384 JLINK_IsHalted()  returns FALSE (0001ms, 101107ms total)
T360C 34962:387 JLINK_IsHalted()  returns FALSE (0001ms, 101107ms total)
T360C 34962:390 JLINK_IsHalted()  returns FALSE (0000ms, 101106ms total)
T360C 34962:392 JLINK_IsHalted()  returns FALSE (0000ms, 101106ms total)
T360C 34962:395 JLINK_IsHalted()  returns FALSE (0002ms, 101108ms total)
T360C 34962:398 JLINK_IsHalted()  returns FALSE (0001ms, 101107ms total)
T360C 34962:401 JLINK_IsHalted()  returns FALSE (0002ms, 101108ms total)
T360C 34962:405 JLINK_IsHalted()  returns FALSE (0001ms, 101107ms total)
T360C 34962:412 JLINK_IsHalted()  returns FALSE (0001ms, 101107ms total)
T360C 34962:415 JLINK_IsHalted()  returns FALSE (0001ms, 101107ms total)
T360C 34962:418 JLINK_IsHalted()  returns FALSE (0001ms, 101107ms total)
T360C 34962:420 JLINK_IsHalted()  returns FALSE (0001ms, 101107ms total)
T360C 34962:423 JLINK_IsHalted()  returns FALSE (0001ms, 101107ms total)
T360C 34962:426 JLINK_IsHalted()  returns FALSE (0001ms, 101107ms total)
T360C 34962:429 JLINK_IsHalted() -- CPU_ReadMem(2 bytes @ 0x20000000)  returns TRUE (0008ms, 101114ms total)
T360C 34962:438 JLINK_ReadReg(R15 (PC))  returns 0x20000000 (0000ms, 101106ms total)
T360C 34962:438 JLINK_ClrBPEx(BPHandle = 0x00000003)  returns 0x00 (0000ms, 101106ms total)
T360C 34962:438 JLINK_ReadReg(R0)  returns 0x00000000 (0000ms, 101106ms total)
T360C 34962:442 JLINK_WriteReg(R0, 0x08004000)  returns 0x00 (0000ms, 101106ms total)
T360C 34962:442 JLINK_WriteReg(R1, 0x00004000)  returns 0x00 (0000ms, 101106ms total)
T360C 34962:442 JLINK_WriteReg(R2, 0x000000FF)  returns 0x00 (0000ms, 101106ms total)
T360C 34962:442 JLINK_WriteReg(R3, 0x00000000)  returns 0x00 (0000ms, 101106ms total)
T360C 34962:442 JLINK_WriteReg(R4, 0x00000000)  returns 0x00 (0000ms, 101106ms total)
T360C 34962:442 JLINK_WriteReg(R5, 0x00000000)  returns 0x00 (0000ms, 101106ms total)
T360C 34962:442 JLINK_WriteReg(R6, 0x00000000)  returns 0x00 (0000ms, 101106ms total)
T360C 34962:442 JLINK_WriteReg(R7, 0x00000000)  returns 0x00 (0000ms, 101106ms total)
T360C 34962:442 JLINK_WriteReg(R8, 0x00000000)  returns 0x00 (0001ms, 101107ms total)
T360C 34962:443 JLINK_WriteReg(R9, 0x20000194)  returns 0x00 (0000ms, 101107ms total)
T360C 34962:443 JLINK_WriteReg(R10, 0x00000000)  returns 0x00 (0000ms, 101107ms total)
T360C 34962:443 JLINK_WriteReg(R11, 0x00000000)  returns 0x00 (0000ms, 101107ms total)
T360C 34962:443 JLINK_WriteReg(R12, 0x00000000)  returns 0x00 (0000ms, 101107ms total)
T360C 34962:443 JLINK_WriteReg(R13 (SP), 0x20001000)  returns 0x00 (0000ms, 101107ms total)
T360C 34962:443 JLINK_WriteReg(R14, 0x20000001)  returns 0x00 (0000ms, 101107ms total)
T360C 34962:443 JLINK_WriteReg(R15 (PC), 0x20000020)  returns 0x00 (0000ms, 101107ms total)
T360C 34962:443 JLINK_WriteReg(XPSR, 0x01000000)  returns 0x00 (0000ms, 101107ms total)
T360C 34962:443 JLINK_WriteReg(MSP, 0x20001000)  returns 0x00 (0000ms, 101107ms total)
T360C 34962:443 JLINK_WriteReg(PSP, 0x20001000)  returns 0x00 (0000ms, 101107ms total)
T360C 34962:444 JLINK_WriteReg(CFBP, 0x00000000)  returns 0x00 (0000ms, 101108ms total)
T360C 34962:444 JLINK_SetBPEx(Addr = 0x20000000, Type = 0xFFFFFFF2)  returns 0x00000004 (0000ms, 101108ms total)
T360C 34962:444 JLINK_Go() (0004ms, 101112ms total)
T360C 34962:448 JLINK_IsHalted() -- CPU_ReadMem(2 bytes @ 0x20000000)  returns TRUE (0010ms, 101122ms total)
T360C 34962:458 JLINK_ReadReg(R15 (PC))  returns 0x20000000 (0000ms, 101112ms total)
T360C 34962:458 JLINK_ClrBPEx(BPHandle = 0x00000004)  returns 0x00 (0000ms, 101112ms total)
T360C 34962:458 JLINK_ReadReg(R0)  returns 0x00000001 (0000ms, 101112ms total)
T360C 34962:458 JLINK_WriteReg(R0, 0x08004000)  returns 0x00 (0000ms, 101112ms total)
T360C 34962:458 JLINK_WriteReg(R1, 0x00004000)  returns 0x00 (0000ms, 101112ms total)
T360C 34962:458 JLINK_WriteReg(R2, 0x000000FF)  returns 0x00 (0000ms, 101112ms total)
T360C 34962:458 JLINK_WriteReg(R3, 0x00000000)  returns 0x00 (0000ms, 101112ms total)
T360C 34962:458 JLINK_WriteReg(R4, 0x00000000)  returns 0x00 (0000ms, 101112ms total)
T360C 34962:458 JLINK_WriteReg(R5, 0x00000000)  returns 0x00 (0000ms, 101112ms total)
T360C 34962:458 JLINK_WriteReg(R6, 0x00000000)  returns 0x00 (0000ms, 101112ms total)
T360C 34962:458 JLINK_WriteReg(R7, 0x00000000)  returns 0x00 (0000ms, 101112ms total)
T360C 34962:458 JLINK_WriteReg(R8, 0x00000000)  returns 0x00 (0000ms, 101112ms total)
T360C 34962:458 JLINK_WriteReg(R9, 0x20000194)  returns 0x00 (0000ms, 101112ms total)
T360C 34962:458 JLINK_WriteReg(R10, 0x00000000)  returns 0x00 (0000ms, 101112ms total)
T360C 34962:458 JLINK_WriteReg(R11, 0x00000000)  returns 0x00 (0000ms, 101112ms total)
T360C 34962:458 JLINK_WriteReg(R12, 0x00000000)  returns 0x00 (0000ms, 101112ms total)
T360C 34962:458 JLINK_WriteReg(R13 (SP), 0x20001000)  returns 0x00 (0000ms, 101112ms total)
T360C 34962:458 JLINK_WriteReg(R14, 0x20000001)  returns 0x00 (0000ms, 101112ms total)
T360C 34962:458 JLINK_WriteReg(R15 (PC), 0x200000D4)  returns 0x00 (0000ms, 101112ms total)
T360C 34962:458 JLINK_WriteReg(XPSR, 0x01000000)  returns 0x00 (0000ms, 101112ms total)
T360C 34962:458 JLINK_WriteReg(MSP, 0x20001000)  returns 0x00 (0000ms, 101112ms total)
T360C 34962:458 JLINK_WriteReg(PSP, 0x20001000)  returns 0x00 (0000ms, 101112ms total)
T360C 34962:458 JLINK_WriteReg(CFBP, 0x00000000)  returns 0x00 (0000ms, 101112ms total)
T360C 34962:458 JLINK_SetBPEx(Addr = 0x20000000, Type = 0xFFFFFFF2)  returns 0x00000005 (0000ms, 101112ms total)
T360C 34962:458 JLINK_Go() (0004ms, 101116ms total)
T360C 34962:462 JLINK_IsHalted()  returns FALSE (0001ms, 101117ms total)
T360C 34962:465 JLINK_IsHalted()  returns FALSE (0002ms, 101118ms total)
T360C 34962:469 JLINK_IsHalted()  returns FALSE (0001ms, 101117ms total)
T360C 34962:472 JLINK_IsHalted()  returns FALSE (0001ms, 101117ms total)
T360C 34962:474 JLINK_IsHalted()  returns FALSE (0001ms, 101117ms total)
T360C 34962:477 JLINK_IsHalted()  returns FALSE (0001ms, 101117ms total)
T360C 34962:480 JLINK_IsHalted()  returns FALSE (0001ms, 101117ms total)
T360C 34962:482 JLINK_IsHalted()  returns FALSE (0001ms, 101117ms total)
T360C 34962:496 JLINK_IsHalted()  returns FALSE (0001ms, 101117ms total)
T360C 34962:499 JLINK_IsHalted()  returns FALSE (0001ms, 101117ms total)
T360C 34962:502 JLINK_IsHalted()  returns FALSE (0001ms, 101117ms total)
T360C 34962:505 JLINK_IsHalted()  returns FALSE (0001ms, 101117ms total)
T360C 34962:508 JLINK_IsHalted()  returns FALSE (0001ms, 101117ms total)
T360C 34962:511 JLINK_IsHalted()  returns FALSE (0001ms, 101117ms total)
T360C 34962:514 JLINK_IsHalted()  returns FALSE (0001ms, 101117ms total)
T360C 34962:522 JLINK_IsHalted()  returns FALSE (0002ms, 101118ms total)
T360C 34962:526 JLINK_IsHalted()  returns FALSE (0001ms, 101117ms total)
T360C 34962:528 JLINK_IsHalted()  returns FALSE (0001ms, 101117ms total)
T360C 34962:531 JLINK_IsHalted()  returns FALSE (0002ms, 101118ms total)
T360C 34962:534 JLINK_IsHalted()  returns FALSE (0001ms, 101117ms total)
T360C 34962:537 JLINK_IsHalted()  returns FALSE (0001ms, 101117ms total)
T360C 34962:539 JLINK_IsHalted()  returns FALSE (0002ms, 101118ms total)
T360C 34962:542 JLINK_IsHalted()  returns FALSE (0001ms, 101117ms total)
T360C 34962:545 JLINK_IsHalted()  returns FALSE (0000ms, 101116ms total)
T360C 34962:556 JLINK_IsHalted()  returns FALSE (0002ms, 101118ms total)
T360C 34962:559 JLINK_IsHalted()  returns FALSE (0001ms, 101117ms total)
T360C 34962:563 JLINK_IsHalted()  returns FALSE (0001ms, 101117ms total)
T360C 34962:566 JLINK_IsHalted()  returns FALSE (0001ms, 101117ms total)
T360C 34962:570 JLINK_IsHalted()  returns FALSE (0001ms, 101117ms total)
T360C 34962:573 JLINK_IsHalted()  returns FALSE (0002ms, 101118ms total)
T360C 34962:576 JLINK_IsHalted()  returns FALSE (0001ms, 101117ms total)
T360C 34962:579 JLINK_IsHalted()  returns FALSE (0000ms, 101116ms total)
T360C 34962:581 JLINK_IsHalted()  returns FALSE (0001ms, 101117ms total)
T360C 34962:584 JLINK_IsHalted()  returns FALSE (0002ms, 101118ms total)
T360C 34962:588 JLINK_IsHalted()  returns FALSE (0001ms, 101117ms total)
T360C 34962:590 JLINK_IsHalted()  returns FALSE (0001ms, 101117ms total)
T360C 34962:601 JLINK_IsHalted()  returns FALSE (0001ms, 101117ms total)
T360C 34962:604 JLINK_IsHalted()  returns FALSE (0001ms, 101117ms total)
T360C 34962:607 JLINK_IsHalted()  returns FALSE (0001ms, 101117ms total)
T360C 34962:610 JLINK_IsHalted()  returns FALSE (0000ms, 101116ms total)
T360C 34962:612 JLINK_IsHalted()  returns FALSE (0001ms, 101117ms total)
T360C 34962:615 JLINK_IsHalted()  returns FALSE (0001ms, 101117ms total)
T360C 34962:618 JLINK_IsHalted()  returns FALSE (0002ms, 101118ms total)
T360C 34962:622 JLINK_IsHalted()  returns FALSE (0001ms, 101117ms total)
T360C 34962:625 JLINK_IsHalted()  returns FALSE (0001ms, 101117ms total)
T360C 34962:628 JLINK_IsHalted()  returns FALSE (0001ms, 101117ms total)
T360C 34962:631 JLINK_IsHalted()  returns FALSE (0001ms, 101117ms total)
T360C 34962:634 JLINK_IsHalted()  returns FALSE (0001ms, 101117ms total)
T360C 34962:637 JLINK_IsHalted()  returns FALSE (0001ms, 101117ms total)
T360C 34962:647 JLINK_IsHalted()  returns FALSE (0001ms, 101117ms total)
T360C 34962:650 JLINK_IsHalted()  returns FALSE (0001ms, 101117ms total)
T360C 34962:653 JLINK_IsHalted()  returns FALSE (0002ms, 101118ms total)
T360C 34962:657 JLINK_IsHalted()  returns FALSE (0001ms, 101117ms total)
T360C 34962:660 JLINK_IsHalted()  returns FALSE (0001ms, 101117ms total)
T360C 34962:663 JLINK_IsHalted()  returns FALSE (0001ms, 101117ms total)
T360C 34962:666 JLINK_IsHalted()  returns FALSE (0001ms, 101117ms total)
T360C 34962:669 JLINK_IsHalted()  returns FALSE (0001ms, 101117ms total)
T360C 34962:672 JLINK_IsHalted()  returns FALSE (0000ms, 101116ms total)
T360C 34962:675 JLINK_IsHalted()  returns FALSE (0001ms, 101117ms total)
T360C 34962:678 JLINK_IsHalted()  returns FALSE (0001ms, 101117ms total)
T360C 34962:680 JLINK_IsHalted()  returns FALSE (0002ms, 101118ms total)
T360C 34962:683 JLINK_IsHalted()  returns FALSE (0001ms, 101117ms total)
T360C 34962:686 JLINK_IsHalted()  returns FALSE (0001ms, 101117ms total)
T360C 34962:689 JLINK_IsHalted()  returns FALSE (0001ms, 101117ms total)
T360C 34962:692 JLINK_IsHalted()  returns FALSE (0001ms, 101117ms total)
T360C 34962:696 JLINK_IsHalted()  returns FALSE (0001ms, 101117ms total)
T360C 34962:698 JLINK_IsHalted()  returns FALSE (0001ms, 101117ms total)
T360C 34962:711 JLINK_IsHalted()  returns FALSE (0002ms, 101118ms total)
T360C 34962:714 JLINK_IsHalted()  returns FALSE (0001ms, 101117ms total)
T360C 34962:717 JLINK_IsHalted()  returns FALSE (0001ms, 101117ms total)
T360C 34962:720 JLINK_IsHalted()  returns FALSE (0002ms, 101118ms total)
T360C 34962:724 JLINK_IsHalted()  returns FALSE (0001ms, 101117ms total)
T360C 34962:727 JLINK_IsHalted()  returns FALSE (0001ms, 101117ms total)
T360C 34962:730 JLINK_IsHalted()  returns FALSE (0002ms, 101118ms total)
T360C 34962:734 JLINK_IsHalted()  returns FALSE (0001ms, 101117ms total)
T360C 34962:737 JLINK_IsHalted()  returns FALSE (0001ms, 101117ms total)
T360C 34962:740 JLINK_IsHalted()  returns FALSE (0001ms, 101117ms total)
T360C 34962:743 JLINK_IsHalted()  returns FALSE (0001ms, 101117ms total)
T360C 34962:746 JLINK_IsHalted()  returns FALSE (0001ms, 101117ms total)
T360C 34962:760 JLINK_IsHalted()  returns FALSE (0002ms, 101118ms total)
T360C 34962:763 JLINK_IsHalted()  returns FALSE (0001ms, 101117ms total)
T360C 34962:767 JLINK_IsHalted()  returns FALSE (0001ms, 101117ms total)
T360C 34962:770 JLINK_IsHalted()  returns FALSE (0001ms, 101117ms total)
T360C 34962:773 JLINK_IsHalted()  returns FALSE (0001ms, 101117ms total)
T360C 34962:776 JLINK_IsHalted()  returns FALSE (0001ms, 101117ms total)
T360C 34962:779 JLINK_IsHalted()  returns FALSE (0000ms, 101116ms total)
T360C 34962:781 JLINK_IsHalted() -- CPU_ReadMem(2 bytes @ 0x20000000)  returns TRUE (0010ms, 101126ms total)
T360C 34962:791 JLINK_ReadReg(R15 (PC))  returns 0x20000000 (0000ms, 101116ms total)
T360C 34962:791 JLINK_ClrBPEx(BPHandle = 0x00000005)  returns 0x00 (0000ms, 101116ms total)
T360C 34962:791 JLINK_ReadReg(R0)  returns 0x00000000 (0000ms, 101116ms total)
T360C 34962:791 JLINK_WriteReg(R0, 0x00000001)  returns 0x00 (0001ms, 101117ms total)
T360C 34962:792 JLINK_WriteReg(R1, 0x00004000)  returns 0x00 (0000ms, 101117ms total)
T360C 34962:792 JLINK_WriteReg(R2, 0x000000FF)  returns 0x00 (0000ms, 101117ms total)
T360C 34962:792 JLINK_WriteReg(R3, 0x00000000)  returns 0x00 (0000ms, 101117ms total)
T360C 34962:792 JLINK_WriteReg(R4, 0x00000000)  returns 0x00 (0000ms, 101117ms total)
T360C 34962:792 JLINK_WriteReg(R5, 0x00000000)  returns 0x00 (0000ms, 101117ms total)
T360C 34962:792 JLINK_WriteReg(R6, 0x00000000)  returns 0x00 (0000ms, 101117ms total)
T360C 34962:792 JLINK_WriteReg(R7, 0x00000000)  returns 0x00 (0000ms, 101117ms total)
T360C 34962:792 JLINK_WriteReg(R8, 0x00000000)  returns 0x00 (0000ms, 101117ms total)
T360C 34962:792 JLINK_WriteReg(R9, 0x20000194)  returns 0x00 (0000ms, 101117ms total)
T360C 34962:792 JLINK_WriteReg(R10, 0x00000000)  returns 0x00 (0000ms, 101117ms total)
T360C 34962:792 JLINK_WriteReg(R11, 0x00000000)  returns 0x00 (0000ms, 101117ms total)
T360C 34962:792 JLINK_WriteReg(R12, 0x00000000)  returns 0x00 (0000ms, 101117ms total)
T360C 34962:792 JLINK_WriteReg(R13 (SP), 0x20001000)  returns 0x00 (0000ms, 101117ms total)
T360C 34962:792 JLINK_WriteReg(R14, 0x20000001)  returns 0x00 (0000ms, 101117ms total)
T360C 34962:792 JLINK_WriteReg(R15 (PC), 0x2000008C)  returns 0x00 (0000ms, 101117ms total)
T360C 34962:792 JLINK_WriteReg(XPSR, 0x01000000)  returns 0x00 (0000ms, 101117ms total)
T360C 34962:792 JLINK_WriteReg(MSP, 0x20001000)  returns 0x00 (0000ms, 101117ms total)
T360C 34962:792 JLINK_WriteReg(PSP, 0x20001000)  returns 0x00 (0000ms, 101117ms total)
T360C 34962:792 JLINK_WriteReg(CFBP, 0x00000000)  returns 0x00 (0000ms, 101117ms total)
T360C 34962:792 JLINK_SetBPEx(Addr = 0x20000000, Type = 0xFFFFFFF2)  returns 0x00000006 (0000ms, 101117ms total)
T360C 34962:792 JLINK_Go() (0004ms, 101121ms total)
T360C 34962:796 JLINK_IsHalted() -- CPU_ReadMem(2 bytes @ 0x20000000)  returns TRUE (0009ms, 101130ms total)
T360C 34962:805 JLINK_ReadReg(R15 (PC))  returns 0x20000000 (0001ms, 101122ms total)
T360C 34962:806 JLINK_ClrBPEx(BPHandle = 0x00000006)  returns 0x00 (0000ms, 101122ms total)
T360C 34962:806 JLINK_ReadReg(R0)  returns 0x00000000 (0000ms, 101122ms total)
T360C 34962:877 JLINK_WriteMem(0x20000000, 0x0198 Bytes, ...) - Data: 00 BE 0A E0 0D 78 2D 06 68 40 08 24 40 00 00 D3 ... -- CPU_WriteMem(408 bytes @ 0x20000000)  returns 0x198 (0013ms, 101135ms total)
T360C 34962:890 JLINK_WriteReg(R0, 0x08000000)  returns 0x00 (0000ms, 101135ms total)
T360C 34962:890 JLINK_WriteReg(R1, 0x0ABA9500)  returns 0x00 (0000ms, 101135ms total)
T360C 34962:890 JLINK_WriteReg(R2, 0x00000002)  returns 0x00 (0000ms, 101135ms total)
T360C 34962:890 JLINK_WriteReg(R3, 0x00000000)  returns 0x00 (0000ms, 101135ms total)
T360C 34962:890 JLINK_WriteReg(R4, 0x00000000)  returns 0x00 (0000ms, 101135ms total)
T360C 34962:890 JLINK_WriteReg(R5, 0x00000000)  returns 0x00 (0000ms, 101135ms total)
T360C 34962:890 JLINK_WriteReg(R6, 0x00000000)  returns 0x00 (0000ms, 101135ms total)
T360C 34962:890 JLINK_WriteReg(R7, 0x00000000)  returns 0x00 (0000ms, 101135ms total)
T360C 34962:890 JLINK_WriteReg(R8, 0x00000000)  returns 0x00 (0000ms, 101135ms total)
T360C 34962:890 JLINK_WriteReg(R9, 0x20000194)  returns 0x00 (0000ms, 101135ms total)
T360C 34962:890 JLINK_WriteReg(R10, 0x00000000)  returns 0x00 (0000ms, 101135ms total)
T360C 34962:890 JLINK_WriteReg(R11, 0x00000000)  returns 0x00 (0000ms, 101135ms total)
T360C 34962:890 JLINK_WriteReg(R12, 0x00000000)  returns 0x00 (0000ms, 101135ms total)
T360C 34962:890 JLINK_WriteReg(R13 (SP), 0x20001000)  returns 0x00 (0000ms, 101135ms total)
T360C 34962:890 JLINK_WriteReg(R14, 0x20000001)  returns 0x00 (0000ms, 101135ms total)
T360C 34962:890 JLINK_WriteReg(R15 (PC), 0x2000005E)  returns 0x00 (0000ms, 101135ms total)
T360C 34962:890 JLINK_WriteReg(XPSR, 0x01000000)  returns 0x00 (0001ms, 101136ms total)
T360C 34962:891 JLINK_WriteReg(MSP, 0x20001000)  returns 0x00 (0000ms, 101136ms total)
T360C 34962:891 JLINK_WriteReg(PSP, 0x20001000)  returns 0x00 (0000ms, 101136ms total)
T360C 34962:891 JLINK_WriteReg(CFBP, 0x00000000)  returns 0x00 (0000ms, 101136ms total)
T360C 34962:891 JLINK_SetBPEx(Addr = 0x20000000, Type = 0xFFFFFFF2) -- CPU_ReadMem(4 bytes @ 0x20000000) -- CPU_WriteMem(4 bytes @ 0x20000000) -- CPU_ReadMem(4 bytes @ 0x20000000) -- CPU_WriteMem(4 bytes @ 0x20000000) -- CPU_ReadMem(2 bytes @ 0x20000000)  returns 0x00000007 (0005ms, 101141ms total)
T360C 34962:896 JLINK_Go() -- CPU_WriteMem(2 bytes @ 0x20000000) (0005ms, 101146ms total)
T360C 34962:901 JLINK_IsHalted() -- CPU_ReadMem(2 bytes @ 0x20000000)  returns TRUE (0010ms, 101156ms total)
T360C 34962:911 JLINK_ReadReg(R15 (PC))  returns 0x20000000 (0000ms, 101146ms total)
T360C 34962:911 JLINK_ClrBPEx(BPHandle = 0x00000007)  returns 0x00 (0000ms, 101146ms total)
T360C 34962:911 JLINK_ReadReg(R0)  returns 0x00000000 (0000ms, 101146ms total)
T360C 34962:912 JLINK_WriteMem(0x20000198, 0x0268 Bytes, ...) - Data: C8 4E 00 20 0D 03 00 08 97 28 00 08 BD 26 00 08 ... -- CPU_WriteMem(616 bytes @ 0x20000198)  returns 0x268 (0019ms, 101165ms total)
T360C 34962:931 JLINK_WriteMem(0x20000400, 0x0198 Bytes, ...) - Data: 00 00 00 00 08 48 00 68 00 68 80 F3 08 88 4F F0 ... -- CPU_WriteMem(408 bytes @ 0x20000400)  returns 0x198 (0013ms, 101178ms total)
T360C 34962:944 JLINK_WriteReg(R0, 0x08000000)  returns 0x00 (0000ms, 101178ms total)
T360C 34962:944 JLINK_WriteReg(R1, 0x00000400)  returns 0x00 (0000ms, 101178ms total)
T360C 34962:944 JLINK_WriteReg(R2, 0x20000198)  returns 0x00 (0000ms, 101178ms total)
T360C 34962:944 JLINK_WriteReg(R3, 0x00000000)  returns 0x00 (0000ms, 101178ms total)
T360C 34962:944 JLINK_WriteReg(R4, 0x00000000)  returns 0x00 (0000ms, 101178ms total)
T360C 34962:944 JLINK_WriteReg(R5, 0x00000000)  returns 0x00 (0000ms, 101178ms total)
T360C 34962:944 JLINK_WriteReg(R6, 0x00000000)  returns 0x00 (0000ms, 101178ms total)
T360C 34962:944 JLINK_WriteReg(R7, 0x00000000)  returns 0x00 (0000ms, 101178ms total)
T360C 34962:944 JLINK_WriteReg(R8, 0x00000000)  returns 0x00 (0000ms, 101178ms total)
T360C 34962:944 JLINK_WriteReg(R9, 0x20000194)  returns 0x00 (0000ms, 101178ms total)
T360C 34962:944 JLINK_WriteReg(R10, 0x00000000)  returns 0x00 (0000ms, 101178ms total)
T360C 34962:944 JLINK_WriteReg(R11, 0x00000000)  returns 0x00 (0000ms, 101178ms total)
T360C 34962:944 JLINK_WriteReg(R12, 0x00000000)  returns 0x00 (0000ms, 101178ms total)
T360C 34962:944 JLINK_WriteReg(R13 (SP), 0x20001000)  returns 0x00 (0000ms, 101178ms total)
T360C 34962:944 JLINK_WriteReg(R14, 0x20000001)  returns 0x00 (0000ms, 101178ms total)
T360C 34962:944 JLINK_WriteReg(R15 (PC), 0x20000120)  returns 0x00 (0000ms, 101178ms total)
T360C 34962:944 JLINK_WriteReg(XPSR, 0x01000000)  returns 0x00 (0000ms, 101178ms total)
T360C 34962:944 JLINK_WriteReg(MSP, 0x20001000)  returns 0x00 (0000ms, 101178ms total)
T360C 34962:944 JLINK_WriteReg(PSP, 0x20001000)  returns 0x00 (0000ms, 101178ms total)
T360C 34962:944 JLINK_WriteReg(CFBP, 0x00000000)  returns 0x00 (0000ms, 101178ms total)
T360C 34962:944 JLINK_SetBPEx(Addr = 0x20000000, Type = 0xFFFFFFF2)  returns 0x00000008 (0000ms, 101178ms total)
T360C 34962:944 JLINK_Go() (0004ms, 101182ms total)
T360C 34962:948 JLINK_IsHalted()  returns FALSE (0001ms, 101183ms total)
T360C 34962:965 JLINK_IsHalted() -- CPU_ReadMem(2 bytes @ 0x20000000)  returns TRUE (0010ms, 101192ms total)
T360C 34962:975 JLINK_ReadReg(R15 (PC))  returns 0x20000000 (0000ms, 101182ms total)
T360C 34962:975 JLINK_ClrBPEx(BPHandle = 0x00000008)  returns 0x00 (0000ms, 101182ms total)
T360C 34962:975 JLINK_ReadReg(R0)  returns 0x00000000 (0000ms, 101182ms total)
T360C 34962:975 JLINK_WriteMem(0x20000198, 0x0268 Bytes, ...) - Data: 0B 09 AB FB 02 7C 48 EB 06 08 C0 1B 06 FB 02 CC ... -- CPU_WriteMem(616 bytes @ 0x20000198)  returns 0x268 (0019ms, 101201ms total)
T360C 34962:994 JLINK_WriteMem(0x20000400, 0x0198 Bytes, ...) - Data: 80 EE 80 1A 84 ED 17 1A F8 BC 5D F8 14 FB 10 2F ... -- CPU_WriteMem(408 bytes @ 0x20000400)  returns 0x198 (0014ms, 101215ms total)
T360C 34963:008 JLINK_WriteReg(R0, 0x08000400)  returns 0x00 (0000ms, 101215ms total)
T360C 34963:008 JLINK_WriteReg(R1, 0x00000400)  returns 0x00 (0000ms, 101215ms total)
T360C 34963:008 JLINK_WriteReg(R2, 0x20000198)  returns 0x00 (0000ms, 101215ms total)
T360C 34963:008 JLINK_WriteReg(R3, 0x00000000)  returns 0x00 (0000ms, 101215ms total)
T360C 34963:008 JLINK_WriteReg(R4, 0x00000000)  returns 0x00 (0000ms, 101215ms total)
T360C 34963:008 JLINK_WriteReg(R5, 0x00000000)  returns 0x00 (0000ms, 101215ms total)
T360C 34963:008 JLINK_WriteReg(R6, 0x00000000)  returns 0x00 (0000ms, 101215ms total)
T360C 34963:008 JLINK_WriteReg(R7, 0x00000000)  returns 0x00 (0000ms, 101215ms total)
T360C 34963:008 JLINK_WriteReg(R8, 0x00000000)  returns 0x00 (0000ms, 101215ms total)
T360C 34963:009 JLINK_WriteReg(R9, 0x20000194)  returns 0x00 (0000ms, 101215ms total)
T360C 34963:009 JLINK_WriteReg(R10, 0x00000000)  returns 0x00 (0000ms, 101215ms total)
T360C 34963:009 JLINK_WriteReg(R11, 0x00000000)  returns 0x00 (0000ms, 101215ms total)
T360C 34963:009 JLINK_WriteReg(R12, 0x00000000)  returns 0x00 (0000ms, 101215ms total)
T360C 34963:009 JLINK_WriteReg(R13 (SP), 0x20001000)  returns 0x00 (0000ms, 101215ms total)
T360C 34963:009 JLINK_WriteReg(R14, 0x20000001)  returns 0x00 (0000ms, 101215ms total)
T360C 34963:009 JLINK_WriteReg(R15 (PC), 0x20000120)  returns 0x00 (0000ms, 101215ms total)
T360C 34963:009 JLINK_WriteReg(XPSR, 0x01000000)  returns 0x00 (0000ms, 101215ms total)
T360C 34963:009 JLINK_WriteReg(MSP, 0x20001000)  returns 0x00 (0000ms, 101215ms total)
T360C 34963:009 JLINK_WriteReg(PSP, 0x20001000)  returns 0x00 (0000ms, 101215ms total)
T360C 34963:009 JLINK_WriteReg(CFBP, 0x00000000)  returns 0x00 (0000ms, 101215ms total)
T360C 34963:010 JLINK_SetBPEx(Addr = 0x20000000, Type = 0xFFFFFFF2)  returns 0x00000009 (0000ms, 101215ms total)
T360C 34963:010 JLINK_Go() (0004ms, 101219ms total)
T360C 34963:014 JLINK_IsHalted()  returns FALSE (0001ms, 101220ms total)
T360C 34963:025 JLINK_IsHalted() -- CPU_ReadMem(2 bytes @ 0x20000000)  returns TRUE (0008ms, 101227ms total)
T360C 34963:033 JLINK_ReadReg(R15 (PC))  returns 0x20000000 (0000ms, 101219ms total)
T360C 34963:033 JLINK_ClrBPEx(BPHandle = 0x00000009)  returns 0x00 (0000ms, 101219ms total)
T360C 34963:033 JLINK_ReadReg(R0)  returns 0x00000000 (0000ms, 101219ms total)
T360C 34963:034 JLINK_WriteMem(0x20000198, 0x0268 Bytes, ...) - Data: 38 01 00 20 78 01 00 20 FE E7 00 00 0C 48 00 B5 ... -- CPU_WriteMem(616 bytes @ 0x20000198)  returns 0x268 (0019ms, 101238ms total)
T360C 34963:053 JLINK_WriteMem(0x20000400, 0x0198 Bytes, ...) - Data: B8 00 00 20 10 B5 86 B0 1C 46 71 B1 01 92 02 91 ... -- CPU_WriteMem(408 bytes @ 0x20000400)  returns 0x198 (0013ms, 101251ms total)
T360C 34963:067 JLINK_WriteReg(R0, 0x08000800)  returns 0x00 (0000ms, 101251ms total)
T360C 34963:067 JLINK_WriteReg(R1, 0x00000400)  returns 0x00 (0000ms, 101251ms total)
T360C 34963:067 JLINK_WriteReg(R2, 0x20000198)  returns 0x00 (0000ms, 101251ms total)
T360C 34963:067 JLINK_WriteReg(R3, 0x00000000)  returns 0x00 (0000ms, 101251ms total)
T360C 34963:067 JLINK_WriteReg(R4, 0x00000000)  returns 0x00 (0000ms, 101251ms total)
T360C 34963:067 JLINK_WriteReg(R5, 0x00000000)  returns 0x00 (0000ms, 101251ms total)
T360C 34963:067 JLINK_WriteReg(R6, 0x00000000)  returns 0x00 (0000ms, 101251ms total)
T360C 34963:067 JLINK_WriteReg(R7, 0x00000000)  returns 0x00 (0000ms, 101251ms total)
T360C 34963:067 JLINK_WriteReg(R8, 0x00000000)  returns 0x00 (0000ms, 101251ms total)
T360C 34963:067 JLINK_WriteReg(R9, 0x20000194)  returns 0x00 (0000ms, 101251ms total)
T360C 34963:068 JLINK_WriteReg(R10, 0x00000000)  returns 0x00 (0000ms, 101251ms total)
T360C 34963:068 JLINK_WriteReg(R11, 0x00000000)  returns 0x00 (0000ms, 101251ms total)
T360C 34963:068 JLINK_WriteReg(R12, 0x00000000)  returns 0x00 (0000ms, 101251ms total)
T360C 34963:068 JLINK_WriteReg(R13 (SP), 0x20001000)  returns 0x00 (0000ms, 101251ms total)
T360C 34963:068 JLINK_WriteReg(R14, 0x20000001)  returns 0x00 (0000ms, 101251ms total)
T360C 34963:068 JLINK_WriteReg(R15 (PC), 0x20000120)  returns 0x00 (0000ms, 101251ms total)
T360C 34963:068 JLINK_WriteReg(XPSR, 0x01000000)  returns 0x00 (0000ms, 101251ms total)
T360C 34963:068 JLINK_WriteReg(MSP, 0x20001000)  returns 0x00 (0000ms, 101251ms total)
T360C 34963:068 JLINK_WriteReg(PSP, 0x20001000)  returns 0x00 (0000ms, 101251ms total)
T360C 34963:068 JLINK_WriteReg(CFBP, 0x00000000)  returns 0x00 (0001ms, 101252ms total)
T360C 34963:069 JLINK_SetBPEx(Addr = 0x20000000, Type = 0xFFFFFFF2)  returns 0x0000000A (0000ms, 101252ms total)
T360C 34963:069 JLINK_Go() (0004ms, 101256ms total)
T360C 34963:073 JLINK_IsHalted()  returns FALSE (0001ms, 101257ms total)
T360C 34963:082 JLINK_IsHalted() -- CPU_ReadMem(2 bytes @ 0x20000000)  returns TRUE (0008ms, 101264ms total)
T360C 34963:090 JLINK_ReadReg(R15 (PC))  returns 0x20000000 (0000ms, 101256ms total)
T360C 34963:090 JLINK_ClrBPEx(BPHandle = 0x0000000A)  returns 0x00 (0000ms, 101256ms total)
T360C 34963:090 JLINK_ReadReg(R0)  returns 0x00000000 (0000ms, 101256ms total)
T360C 34963:092 JLINK_WriteMem(0x20000198, 0x0268 Bytes, ...) - Data: 38 B5 04 46 00 68 01 68 C9 06 1E D5 C1 68 C9 06 ... -- CPU_WriteMem(616 bytes @ 0x20000198)  returns 0x268 (0019ms, 101275ms total)
T360C 34963:111 JLINK_WriteMem(0x20000400, 0x0198 Bytes, ...) - Data: 01 28 0F D1 9D F8 02 00 07 49 02 46 80 1E 01 F8 ... -- CPU_WriteMem(408 bytes @ 0x20000400)  returns 0x198 (0012ms, 101287ms total)
T360C 34963:123 JLINK_WriteReg(R0, 0x08000C00)  returns 0x00 (0001ms, 101288ms total)
T360C 34963:124 JLINK_WriteReg(R1, 0x00000400)  returns 0x00 (0000ms, 101288ms total)
T360C 34963:124 JLINK_WriteReg(R2, 0x20000198)  returns 0x00 (0000ms, 101288ms total)
T360C 34963:124 JLINK_WriteReg(R3, 0x00000000)  returns 0x00 (0000ms, 101288ms total)
T360C 34963:124 JLINK_WriteReg(R4, 0x00000000)  returns 0x00 (0000ms, 101288ms total)
T360C 34963:124 JLINK_WriteReg(R5, 0x00000000)  returns 0x00 (0000ms, 101288ms total)
T360C 34963:124 JLINK_WriteReg(R6, 0x00000000)  returns 0x00 (0000ms, 101288ms total)
T360C 34963:124 JLINK_WriteReg(R7, 0x00000000)  returns 0x00 (0000ms, 101288ms total)
T360C 34963:124 JLINK_WriteReg(R8, 0x00000000)  returns 0x00 (0000ms, 101288ms total)
T360C 34963:124 JLINK_WriteReg(R9, 0x20000194)  returns 0x00 (0000ms, 101288ms total)
T360C 34963:124 JLINK_WriteReg(R10, 0x00000000)  returns 0x00 (0000ms, 101288ms total)
T360C 34963:124 JLINK_WriteReg(R11, 0x00000000)  returns 0x00 (0000ms, 101288ms total)
T360C 34963:124 JLINK_WriteReg(R12, 0x00000000)  returns 0x00 (0000ms, 101288ms total)
T360C 34963:124 JLINK_WriteReg(R13 (SP), 0x20001000)  returns 0x00 (0000ms, 101288ms total)
T360C 34963:124 JLINK_WriteReg(R14, 0x20000001)  returns 0x00 (0000ms, 101288ms total)
T360C 34963:124 JLINK_WriteReg(R15 (PC), 0x20000120)  returns 0x00 (0000ms, 101288ms total)
T360C 34963:124 JLINK_WriteReg(XPSR, 0x01000000)  returns 0x00 (0000ms, 101288ms total)
T360C 34963:124 JLINK_WriteReg(MSP, 0x20001000)  returns 0x00 (0000ms, 101288ms total)
T360C 34963:124 JLINK_WriteReg(PSP, 0x20001000)  returns 0x00 (0000ms, 101288ms total)
T360C 34963:124 JLINK_WriteReg(CFBP, 0x00000000)  returns 0x00 (0000ms, 101288ms total)
T360C 34963:124 JLINK_SetBPEx(Addr = 0x20000000, Type = 0xFFFFFFF2)  returns 0x0000000B (0000ms, 101288ms total)
T360C 34963:124 JLINK_Go() (0004ms, 101292ms total)
T360C 34963:129 JLINK_IsHalted()  returns FALSE (0002ms, 101295ms total)
T360C 34963:132 JLINK_IsHalted()  returns FALSE (0002ms, 101295ms total)
T360C 34963:135 JLINK_IsHalted() -- CPU_ReadMem(2 bytes @ 0x20000000)  returns TRUE (0008ms, 101301ms total)
T360C 34963:143 JLINK_ReadReg(R15 (PC))  returns 0x20000000 (0000ms, 101293ms total)
T360C 34963:143 JLINK_ClrBPEx(BPHandle = 0x0000000B)  returns 0x00 (0000ms, 101293ms total)
T360C 34963:143 JLINK_ReadReg(R0)  returns 0x00000000 (0000ms, 101293ms total)
T360C 34963:143 JLINK_WriteMem(0x20000198, 0x0268 Bytes, ...) - Data: F0 BD 00 00 10 B5 90 F8 20 20 01 2A 07 D0 02 2A ... -- CPU_WriteMem(616 bytes @ 0x20000198)  returns 0x268 (0020ms, 101313ms total)
T360C 34963:163 JLINK_WriteMem(0x20000400, 0x0198 Bytes, ...) - Data: 00 54 07 E0 38 05 02 D5 44 F4 80 44 02 E0 28 46 ... -- CPU_WriteMem(408 bytes @ 0x20000400)  returns 0x198 (0013ms, 101326ms total)
T360C 34963:176 JLINK_WriteReg(R0, 0x08001000)  returns 0x00 (0000ms, 101326ms total)
T360C 34963:176 JLINK_WriteReg(R1, 0x00000400)  returns 0x00 (0000ms, 101326ms total)
T360C 34963:176 JLINK_WriteReg(R2, 0x20000198)  returns 0x00 (0000ms, 101326ms total)
T360C 34963:176 JLINK_WriteReg(R3, 0x00000000)  returns 0x00 (0000ms, 101326ms total)
T360C 34963:176 JLINK_WriteReg(R4, 0x00000000)  returns 0x00 (0000ms, 101326ms total)
T360C 34963:176 JLINK_WriteReg(R5, 0x00000000)  returns 0x00 (0000ms, 101326ms total)
T360C 34963:176 JLINK_WriteReg(R6, 0x00000000)  returns 0x00 (0000ms, 101326ms total)
T360C 34963:176 JLINK_WriteReg(R7, 0x00000000)  returns 0x00 (0000ms, 101326ms total)
T360C 34963:177 JLINK_WriteReg(R8, 0x00000000)  returns 0x00 (0000ms, 101326ms total)
T360C 34963:177 JLINK_WriteReg(R9, 0x20000194)  returns 0x00 (0000ms, 101326ms total)
T360C 34963:177 JLINK_WriteReg(R10, 0x00000000)  returns 0x00 (0000ms, 101326ms total)
T360C 34963:177 JLINK_WriteReg(R11, 0x00000000)  returns 0x00 (0000ms, 101326ms total)
T360C 34963:177 JLINK_WriteReg(R12, 0x00000000)  returns 0x00 (0000ms, 101326ms total)
T360C 34963:177 JLINK_WriteReg(R13 (SP), 0x20001000)  returns 0x00 (0000ms, 101326ms total)
T360C 34963:177 JLINK_WriteReg(R14, 0x20000001)  returns 0x00 (0000ms, 101326ms total)
T360C 34963:177 JLINK_WriteReg(R15 (PC), 0x20000120)  returns 0x00 (0000ms, 101326ms total)
T360C 34963:177 JLINK_WriteReg(XPSR, 0x01000000)  returns 0x00 (0000ms, 101326ms total)
T360C 34963:177 JLINK_WriteReg(MSP, 0x20001000)  returns 0x00 (0001ms, 101327ms total)
T360C 34963:178 JLINK_WriteReg(PSP, 0x20001000)  returns 0x00 (0000ms, 101327ms total)
T360C 34963:178 JLINK_WriteReg(CFBP, 0x00000000)  returns 0x00 (0000ms, 101327ms total)
T360C 34963:178 JLINK_SetBPEx(Addr = 0x20000000, Type = 0xFFFFFFF2)  returns 0x0000000C (0000ms, 101327ms total)
T360C 34963:178 JLINK_Go() (0004ms, 101331ms total)
T360C 34963:182 JLINK_IsHalted()  returns FALSE (0002ms, 101333ms total)
T360C 34963:195 JLINK_IsHalted() -- CPU_ReadMem(2 bytes @ 0x20000000)  returns TRUE (0009ms, 101340ms total)
T360C 34963:204 JLINK_ReadReg(R15 (PC))  returns 0x20000000 (0000ms, 101331ms total)
T360C 34963:204 JLINK_ClrBPEx(BPHandle = 0x0000000C)  returns 0x00 (0000ms, 101331ms total)
T360C 34963:204 JLINK_ReadReg(R0)  returns 0x00000000 (0000ms, 101331ms total)
T360C 34963:204 JLINK_WriteMem(0x20000198, 0x0268 Bytes, ...) - Data: 10 B1 04 E0 01 20 70 BD 20 46 00 F0 81 F8 20 68 ... -- CPU_WriteMem(616 bytes @ 0x20000198)  returns 0x268 (0020ms, 101351ms total)
T360C 34963:224 JLINK_WriteMem(0x20000400, 0x0198 Bytes, ...) - Data: C0 07 ED D1 60 62 70 BD 70 47 70 47 70 47 70 47 ... -- CPU_WriteMem(408 bytes @ 0x20000400)  returns 0x198 (0013ms, 101364ms total)
T360C 34963:237 JLINK_WriteReg(R0, 0x08001400)  returns 0x00 (0000ms, 101364ms total)
T360C 34963:237 JLINK_WriteReg(R1, 0x00000400)  returns 0x00 (0000ms, 101364ms total)
T360C 34963:237 JLINK_WriteReg(R2, 0x20000198)  returns 0x00 (0000ms, 101364ms total)
T360C 34963:237 JLINK_WriteReg(R3, 0x00000000)  returns 0x00 (0000ms, 101364ms total)
T360C 34963:237 JLINK_WriteReg(R4, 0x00000000)  returns 0x00 (0000ms, 101364ms total)
T360C 34963:237 JLINK_WriteReg(R5, 0x00000000)  returns 0x00 (0000ms, 101364ms total)
T360C 34963:237 JLINK_WriteReg(R6, 0x00000000)  returns 0x00 (0000ms, 101364ms total)
T360C 34963:237 JLINK_WriteReg(R7, 0x00000000)  returns 0x00 (0000ms, 101364ms total)
T360C 34963:237 JLINK_WriteReg(R8, 0x00000000)  returns 0x00 (0000ms, 101364ms total)
T360C 34963:237 JLINK_WriteReg(R9, 0x20000194)  returns 0x00 (0000ms, 101364ms total)
T360C 34963:237 JLINK_WriteReg(R10, 0x00000000)  returns 0x00 (0000ms, 101364ms total)
